T25D4 6818:927 SEGGER J-Link V6.32g Log File (0000ms, 27775ms total)
T25D4 6818:927 DLL Compiled: Jun 15 2018 17:26:15 (0001ms, 27776ms total)
T25D4 6818:927 Logging started @ 2019-12-12 18:14 (0001ms, 27776ms total)
T25D4 6818:928 JLINK_ExecCommand("device = ATSAMD21G18A", ...). Device "ATSAMD21G18" selected.  returns 0x00 (0001ms, 27777ms total)
T25D4 6818:929 JLINK_GetHWStatus(...)  returns 0x00 (0001ms, 27778ms total)
T25D4 6818:930 JLINK_ClrRESET() (0004ms, 27782ms total)
T25D4 6818:941 JLINK_SetRESET() (0000ms, 27782ms total)
T25D4 6818:946 JLINK_ClrRESET() (0001ms, 27783ms total)
T25D4 6818:952 JLINK_ClrTCK()  returns 0x00 (0000ms, 27783ms total)
T25D4 6818:961 JLINK_SetRESET() (0000ms, 27783ms total)
T25D4 6818:967 JLINK_Clock()  returns 0x00 (0000ms, 27783ms total)
T25D4 6818:972 JLINK_TIF_Select(JLINKARM_TIF_SWD)  returns 0x00 (0004ms, 27787ms total)
T25D4 6818:976 JLINK_SetSpeed(50) (0001ms, 27788ms total)
T25D4 6818:977 JLINK_JTAG_StoreRaw(..., 0x108 Bits)  returns 0x00 (0000ms, 27788ms total)
T25D4 6818:977 JLINK_JTAG_GetU32(BitPos = 227) >0x108 TIF>  returns 0x0BC11477 (0006ms, 27794ms total)
T25D4 6818:983 JLINK_JTAG_StoreRaw(..., 0x08 Bits)  returns 0x00 (0000ms, 27794ms total)
T25D4 6818:983 JLINK_JTAG_StoreRaw(..., 0x03 Bits)  returns 0x08 (0000ms, 27794ms total)
T25D4 6818:983 JLINK_JTAG_StoreRaw(..., 0x28 Bits)  returns 0x0B (0000ms, 27794ms total)
T25D4 6818:983 JLINK_JTAG_GetU8(BitPos = 8) >0x33 TIF>  returns 0xB9 (0001ms, 27795ms total)
T25D4 6818:984 JLINK_JTAG_GetU32(BitPos = 11)  returns 0x0BC11477 (0000ms, 27795ms total)
T25D4 6818:984 JLINK_JTAG_GetU8(BitPos = 43)  returns 0x02 (0000ms, 27795ms total)
T25D4 6818:984 JLINK_JTAG_StoreRaw(..., 0x08 Bits)  returns 0x00 (0000ms, 27795ms total)
T25D4 6818:984 JLINK_JTAG_StoreRaw(..., 0x03 Bits)  returns 0x08 (0000ms, 27795ms total)
T25D4 6818:984 JLINK_JTAG_StoreRaw(..., 0x28 Bits)  returns 0x0B (0000ms, 27795ms total)
T25D4 6818:984 JLINK_JTAG_GetU8(BitPos = 8) >0x33 TIF>  returns 0x01 (0002ms, 27797ms total)
T25D4 6818:986 JLINK_JTAG_GetU32(BitPos = 11)  returns 0x00000000 (0000ms, 27797ms total)
T25D4 6818:986 JLINK_JTAG_GetU8(BitPos = 43)  returns 0x02 (0000ms, 27797ms total)
T25D4 6818:986 JLINK_JTAG_StoreRaw(..., 0x08 Bits)  returns 0x00 (0000ms, 27797ms total)
T25D4 6818:986 JLINK_JTAG_StoreRaw(..., 0x03 Bits)  returns 0x08 (0000ms, 27797ms total)
T25D4 6818:986 JLINK_JTAG_StoreRaw(..., 0x02 Bits)  returns 0x0B (0000ms, 27797ms total)
T25D4 6818:986 JLINK_JTAG_StoreRaw(..., 0x28 Bits)  returns 0x0D (0000ms, 27797ms total)
T25D4 6818:986 JLINK_JTAG_GetU8(BitPos = 8) >0x35 TIF>  returns 0x39 (0002ms, 27799ms total)
T25D4 6818:988 JLINK_JTAG_StoreRaw(..., 0x08 Bits)  returns 0x00 (0000ms, 27799ms total)
T25D4 6818:988 JLINK_JTAG_StoreRaw(..., 0x03 Bits)  returns 0x08 (0000ms, 27799ms total)
T25D4 6818:988 JLINK_JTAG_StoreRaw(..., 0x28 Bits)  returns 0x0B (0000ms, 27799ms total)
T25D4 6818:988 JLINK_JTAG_GetU8(BitPos = 8) >0x33 TIF>  returns 0x09 (0001ms, 27800ms total)
T25D4 6818:989 JLINK_JTAG_GetU32(BitPos = 11)  returns 0xF0000001 (0000ms, 27800ms total)
T25D4 6818:989 JLINK_JTAG_GetU8(BitPos = 43)  returns 0x03 (0000ms, 27800ms total)
T25D4 6818:989 JLINK_WriteMem(0x41002100, 0x0001 Bytes, ...) - Data: 10InitTarget() >0x10B TIF> >0x0D TIF> >0x28 TIF> >0x0D TIF> >0x28 TIF> >0x0D TIF> >0x28 TIF> >0x0D TIF> >0x28 TIF> >0x0D TIF> >0x21 TIF> >0x0D TIF> >0x28 TIF> >0x0D TIF> >0x28 TIF> >0x0D TIF> >0x28 TIF> >0x0D TIF> >0x21 TIF> >0x0D TIF> >0x21 TIF> >0x0D TIF> >0x28 TIF> >0x0D TIF> >0x28 TIF> >0x0D TIF> >0x28 TIF> >0x0D TIF> >0x28 TIF> >0x0D TIF> >0x28 TIF> >0x0D TIF> >0x28 TIF> >0x0D TIF> >0x21 TIF> >0x0D TIF> >0x21 TIF> >0x0D TIF>
 >0x28 TIF> >0x0D TIF> >0x28 TIF> >0x10B TIF>Found SW-DP with ID 0x0BC11477 >0x0D TIF> >0x28 TIF> >0x0D TIF> >0x28 TIF> >0x0D TIF> >0x28 TIF> >0x0D TIF> >0x28 TIF> >0x0D TIF> >0x21 TIF> >0x0D TIF> >0x28 TIF>Scanning AP map to find all available APs >0x0D TIF> >0x28 TIF> >0x0D TIF> >0x21 TIF> >0x0D TIF> >0x21 TIF> >0x0D TIF> >0x28 TIF> >0x0D TIF> >0x21 TIF> >0x0D TIF> >0x21 TIF>AP[1]: Stopped AP scan as end of AP map has been reachedAP[0]: AHB-AP (IDR: 0x04770031)
Iterating through AP map to find AHB-AP to use >0x42 TIF> >0x28 TIF> >0x0D TIF> >0x28 TIF> >0x0D TIF> >0x21 TIF> >0x0D TIF> >0x21 TIF> >0x42 TIF> >0x28 TIF> >0x0D TIF> >0x28 TIF> >0x0D TIF> >0x28 TIF> >0x0D TIF> >0x21 TIF> >0x0D TIF> >0x21 TIF>AP[0]: Core foundAP[0]: AHB-AP ROM base: 0x41003000 >0x0D TIF> >0x28 TIF> >0x0D TIF> >0x28 TIF> >0x0D TIF> >0x28 TIF> >0x0D TIF> >0x21 TIF> >0x0D TIF> >0x21 TIF>CPUID register: 0x410CC601. Implementer code: 0x41 (ARM)Found Cortex-M0 r0p1, Little endian.
 -- CPU_ReadMem(4 bytes @ 0xE000EDF0) -- CPU_ReadMem(4 bytes @ 0xE0002000)FPUnit: 4 code (BP) slots and 0 literal slots -- CPU_ReadMem(4 bytes @ 0xE000EDFC) -- CPU_ReadMem(4 bytes @ 0xE0001000) -- CPU_WriteMem(4 bytes @ 0xE0001000)CoreSight components:ROMTbl[0] @ 41003000 -- CPU_ReadMem(16 bytes @ 0x41003000) -- CPU_ReadMem(16 bytes @ 0xE00FFFF0) -- CPU_ReadMem(16 bytes @ 0xE00FFFE0)ROMTbl[0][0]: E00FF000, CID: B105100D, PID: 000BB4C0 ROM TableROMTbl[1] @ E00FF000 -- CPU_ReadMem(16 bytes @ 0xE00FF000)
 -- CPU_ReadMem(16 bytes @ 0xE000EFF0) -- CPU_ReadMem(16 bytes @ 0xE000EFE0)ROMTbl[1][0]: E000E000, CID: B105E00D, PID: 000BB008 SCS -- CPU_ReadMem(16 bytes @ 0xE0001FF0) -- CPU_ReadMem(16 bytes @ 0xE0001FE0)ROMTbl[1][1]: E0001000, CID: B105E00D, PID: 000BB00A DWT -- CPU_ReadMem(16 bytes @ 0xE0002FF0) -- CPU_ReadMem(16 bytes @ 0xE0002FE0)ROMTbl[1][2]: E0002000, CID: B105E00D, PID: 000BB00B FPB -- CPU_ReadMem(16 bytes @ 0x41006FF0) -- CPU_ReadMem(16 bytes @ 0x41006FE0)
ROMTbl[0][1]: 41006000, CID: B105900D, PID: 001BB932 MTB-M0+ -- CPU is running -- CPU_WriteMem(1 bytes @ 0x41002100)  returns 0x01 (0368ms, 28168ms total)
T25D4 6819:357 JLINK_ReadMem (0x41002101, 0x0001 Bytes, ...) -- CPU_ReadMem(1 bytes @ 0x41002101) - Data: 00  returns 0x00 (0007ms, 28175ms total)
T25D4 6819:565 JLINK_ReadMem (0x41002101, 0x0001 Bytes, ...) -- CPU_ReadMem(1 bytes @ 0x41002101) - Data: 01  returns 0x00 (0006ms, 28181ms total)
T25D4 6819:580 JLINK_ExecCommand("Device = ATSAMD21G18A", ...). Device "ATSAMD21G18" selected.  returns 0x00 (0002ms, 28183ms total)
T25D4 6819:582 JLINK_TIF_Select(JLINKARM_TIF_SWD)  returns 0x00 (0000ms, 28183ms total)
T25D4 6819:582 JLINK_SetSpeed(4000) (0001ms, 28184ms total)
T25D4 6819:583 JLINK_ResetPullsRESET(OFF) (0000ms, 28184ms total)
T25D4 6819:583 JLINK_Connect()InitTarget() >0x10B TIF> >0x0D TIF> >0x28 TIF> >0x0D TIF> >0x28 TIF> >0x0D TIF> >0x28 TIF> >0x0D TIF> >0x28 TIF> >0x0D TIF> >0x21 TIF> >0x0D TIF> >0x28 TIF> >0x0D TIF> >0x28 TIF> >0x0D TIF> >0x28 TIF> >0x0D TIF> >0x21 TIF> >0x0D TIF> >0x21 TIF> >0x10B TIF>Found SW-DP with ID 0x0BC11477 >0x0D TIF> >0x28 TIF> >0x0D TIF> >0x28 TIF> >0x0D TIF> >0x28 TIF> >0x0D TIF> >0x28 TIF> >0x0D TIF> >0x21 TIF> >0x0D TIF> >0x28 TIF>AP map detection skipped. Manually configured AP map found.
AP[0]: AHB-AP (IDR: Not set) >0x42 TIF> >0x28 TIF> >0x0D TIF> >0x28 TIF> >0x0D TIF> >0x21 TIF> >0x0D TIF> >0x21 TIF> >0x42 TIF> >0x28 TIF> >0x0D TIF> >0x28 TIF> >0x0D TIF> >0x28 TIF> >0x0D TIF> >0x21 TIF> >0x0D TIF> >0x21 TIF>AP[0]: Core foundAP[0]: AHB-AP ROM base: 0x41003000 >0x0D TIF> >0x28 TIF> >0x0D TIF> >0x28 TIF> >0x0D TIF> >0x28 TIF> >0x0D TIF> >0x21 TIF> >0x0D TIF> >0x21 TIF>CPUID register: 0x410CC601. Implementer code: 0x41 (ARM)Found Cortex-M0 r0p1, Little endian.
 -- CPU_ReadMem(4 bytes @ 0xE000EDF0) -- CPU_ReadMem(4 bytes @ 0xE0002000)FPUnit: 4 code (BP) slots and 0 literal slots -- CPU_ReadMem(4 bytes @ 0xE000EDFC) -- CPU_ReadMem(4 bytes @ 0xE0001000) -- CPU_WriteMem(4 bytes @ 0xE0001000)CoreSight components:ROMTbl[0] @ 41003000 -- CPU_ReadMem(16 bytes @ 0x41003000) -- CPU_ReadMem(16 bytes @ 0xE00FFFF0) -- CPU_ReadMem(16 bytes @ 0xE00FFFE0)ROMTbl[0][0]: E00FF000, CID: B105100D, PID: 000BB4C0 ROM TableROMTbl[1] @ E00FF000 -- CPU_ReadMem(16 bytes @ 0xE00FF000)
 -- CPU_ReadMem(16 bytes @ 0xE000EFF0) -- CPU_ReadMem(16 bytes @ 0xE000EFE0)ROMTbl[1][0]: E000E000, CID: B105E00D, PID: 000BB008 SCS -- CPU_ReadMem(16 bytes @ 0xE0001FF0) -- CPU_ReadMem(16 bytes @ 0xE0001FE0)ROMTbl[1][1]: E0001000, CID: B105E00D, PID: 000BB00A DWT -- CPU_ReadMem(16 bytes @ 0xE0002FF0) -- CPU_ReadMem(16 bytes @ 0xE0002FE0)ROMTbl[1][2]: E0002000, CID: B105E00D, PID: 000BB00B FPB -- CPU_ReadMem(16 bytes @ 0x41006FF0) -- CPU_ReadMem(16 bytes @ 0x41006FE0)
ROMTbl[0][1]: 41006000, CID: B105900D, PID: 001BB932 MTB-M0+  returns 0x00 (0190ms, 28374ms total)
T25D4 6819:773 JLINK_Halt()  returns 0x00 (0004ms, 28378ms total)
T25D4 6819:778 JLINK_JTAG_GetDeviceID(DeviceIndex = 0)  returns 0x00 (0000ms, 28378ms total)
T25D4 6819:778 JLINK_ReadMemU32(0x41002018, 0x0001 Items, ...) -- CPU_ReadMem(4 bytes @ 0x41002018) - Data: 05 03 01 10  returns 0x01 (0002ms, 28380ms total)
T2AC8 6819:788 JLINK_IsHalted()  returns TRUE (0000ms, 28380ms total)
T2AC8 6819:788 JLINK_GetMOEs(...) -- CPU_ReadMem(4 bytes @ 0xE000ED30)  returns 0x01 (0003ms, 28383ms total)
T2AC8 6819:791 JLINK_ReadReg(R15 (PC))  returns 0x00001144 (0000ms, 28383ms total)
T25D4 6819:796 JLINK_BeginDownload(Flags = 0x00) (0000ms, 28383ms total)
T25D4 6819:796 JLINK_WriteMem(0x00000000, 0x0040 Bytes, ...) - Data: FC 7F 00 20 45 11 00 00 35 11 00 00 39 11 00 00 ...  returns 0x40 (0001ms, 28384ms total)
T25D4 6819:797 JLINK_WriteMem(0x00000040, 0x2B58 Bytes, ...) - Data: 10 B5 06 4C 23 78 00 2B 07 D1 05 4B 00 2B 02 D0 ...  returns 0x2B58 (0000ms, 28384ms total)
T25D4 6819:797 JLINK_WriteMem(0x00002B98, 0x00BC Bytes, ...) - Data: 01 14 00 00 09 02 43 00 02 01 00 80 32 09 04 00 ...  returns 0xBC (0000ms, 28384ms total)
T25D4 6819:809 JLINK_EndDownload()Old firmware which does not support pausing periodic actions during flash download -- CPU_ReadMem(4 bytes @ 0x41006004) -- CPU_ReadMem(4 bytes @ 0xE000ED90) -- -------------------------------------- -- Start of determining dirty areas in flash cache -- End of determining dirty areas -- Start of preparing flash programming -- Calculating RAM usage -- RAM usage = 2804 Bytes -- Preserving CPU registers -- Preparing memory -- Preparing target -- Downloading RAMCode
 -- Checking target RAM -- Preparing RAMCode -- End of preparing flash programming -- CPU speed could not be measured. -- Start of comparing flash -- CRC check was estimated as fastest method -- Comparing range 0x0000 - 0x2CFF (45 Sectors, 11 KB), using multi-block CRC calculation -- CRC does not match for sectors 0-44 -- End of comparing flash -- Start of erasing sectors -- End of erasing sectors -- Start of flash programming -- Programming range 0x00000000 - 0x00002CFF (045 Sectors, 11 KB)
 -- End of flash programming -- 0x0000 - 0x2CFF (045 Sectors, 11 KB) -- Start of verifying flash -- Use CRC as verify method -- Checksum is not supported by this flash bank. Switched to CRC method. -- End of verifying flash -- Start of restoring -- Restoring RAMCode -- Restore target -- Restore memory -- Restoring CPU registers -- End of restoring -- Bank 0 @ 0x00000000: 1 range affected (11520 bytes)
 -- Total time needed: 0.266s (Prepare: 0.041s, Compare: 0.029s, Erase: 0.000s, Program: 0.178s, Verify: 0.012s, Restore: 0.004s)  returns 0x2D00 (0271ms, 28655ms total)
T2AC8 6820:080 JLINK_IsHalted()  returns TRUE (0000ms, 28655ms total)
T25D4 6820:080 JLINK_SetResetType(JLINKARM_CM3_RESET_TYPE_NORMAL)  returns JLINKARM_CM3_RESET_TYPE_NORMAL (0000ms, 28655ms total)
T25D4 6820:082 JLINK_Reset() -- CPU_ReadMem(4 bytes @ 0x200006BC) -- CPU_WriteMem(4 bytes @ 0x200006BC) -- CPU_ReadMem(4 bytes @ 0xE000EDFC) -- CPU_WriteMem(4 bytes @ 0xE000EDFC) -- CPU_WriteMem(4 bytes @ 0xE000ED0C) -- CPU_ReadMem(4 bytes @ 0xE000EDF0) -- CPU_ReadMem(4 bytes @ 0x41002100) -- CPU_WriteMem(4 bytes @ 0x41002100) -- CPU_ReadMem(4 bytes @ 0x41002100) -- CPU_WriteMem(4 bytes @ 0xE000EDFC) -- CPU_WriteMem(4 bytes @ 0xE0002000) -- CPU_ReadMem(4 bytes @ 0xE000EDFC)
 -- CPU_ReadMem(4 bytes @ 0xE0001000) -- CPU_WriteMem(4 bytes @ 0xE0001000) (0016ms, 28671ms total)
T2180 6820:227 JLINK_Halt()  returns 0x00 (0000ms, 28671ms total)
T2180 6820:227 JLINK_ReadReg(R15 (PC))  returns 0x00001144 (0000ms, 28671ms total)
T2180 6820:227 JLINK_ReadReg(R13 (SP))  returns 0x20007FFC (0000ms, 28671ms total)
T2180 6820:232 JLINK_ReadMemHW(0x00001144, 0x0004 Bytes, ...) -- CPU_ReadMem(4 bytes @ 0x00001144) - Data: 10 B5 16 4A  returns 0x00 (0001ms, 28672ms total)
T2180 6820:233 JLINK_ReadReg(R0)  returns 0x40001000 (0000ms, 28672ms total)
T2180 6820:233 JLINK_ReadReg(R1)  returns 0x00000000 (0000ms, 28672ms total)
T2180 6820:233 JLINK_ReadReg(R2)  returns 0x00000000 (0000ms, 28672ms total)
T2180 6820:233 JLINK_ReadReg(R3)  returns 0xCDB40975 (0000ms, 28672ms total)
T2180 6820:233 JLINK_ReadReg(R4)  returns 0x20000664 (0000ms, 28672ms total)
T2180 6820:233 JLINK_ReadReg(R5)  returns 0x20000684 (0000ms, 28672ms total)
T2180 6820:233 JLINK_ReadReg(R6)  returns 0x20000684 (0000ms, 28672ms total)
T2180 6820:233 JLINK_ReadReg(R7)  returns 0x20007F74 (0000ms, 28672ms total)
T2180 6820:233 JLINK_ReadReg(R8)  returns 0x00000040 (0000ms, 28672ms total)
T2180 6820:233 JLINK_ReadReg(R9)  returns 0x2000032E (0000ms, 28672ms total)
T2180 6820:233 JLINK_ReadReg(R10)  returns 0x00000000 (0000ms, 28672ms total)
T2180 6820:233 JLINK_ReadReg(R11)  returns 0xF7FEFFE7 (0000ms, 28672ms total)
T2180 6820:233 JLINK_ReadReg(R12)  returns 0x200005D8 (0000ms, 28672ms total)
T2180 6820:233 JLINK_ReadReg(R13 (SP))  returns 0x20007FFC (0000ms, 28672ms total)
T2180 6820:233 JLINK_ReadReg(R14)  returns 0x2000032F (0000ms, 28672ms total)
T2180 6820:233 JLINK_ReadReg(R15 (PC))  returns 0x00001144 (0000ms, 28672ms total)
T2180 6820:233 JLINK_ReadReg(XPSR)  returns 0x61000000 (0000ms, 28672ms total)
T2180 6820:233 JLINK_ReadReg(MSP)  returns 0x20007FFC (0000ms, 28672ms total)
T2180 6820:233 JLINK_ReadReg(PSP)  returns 0xEFEDFFFC (0000ms, 28672ms total)
T2180 6820:233 JLINK_ReadReg(PRIMASK)  returns 0x00000000 (0000ms, 28672ms total)
T2180 6820:233 JLINK_ReadReg(BASEPRI)  returns 0x00000000 (0000ms, 28672ms total)
T2180 6820:233 JLINK_ReadReg(FAULTMASK)  returns 0x00000000 (0001ms, 28673ms total)
T2180 6820:234 JLINK_ReadReg(CONTROL)  returns 0x00000000 (0000ms, 28673ms total)
T2180 6820:234 JLINK_ReadMemHW(0x00001144, 0x0002 Bytes, ...) -- CPU_ReadMem(2 bytes @ 0x00001144) - Data: 10 B5  returns 0x00 (0001ms, 28674ms total)
T2180 6820:269 JLINK_ReadReg(R0)  returns 0x40001000 (0000ms, 28674ms total)
T2180 6820:269 JLINK_ReadReg(R1)  returns 0x00000000 (0000ms, 28674ms total)
T2180 6820:269 JLINK_ReadReg(R2)  returns 0x00000000 (0000ms, 28674ms total)
T2180 6820:269 JLINK_ReadReg(R3)  returns 0xCDB40975 (0000ms, 28674ms total)
T2180 6820:269 JLINK_ReadReg(R4)  returns 0x20000664 (0000ms, 28674ms total)
T2180 6820:269 JLINK_ReadReg(R5)  returns 0x20000684 (0000ms, 28674ms total)
T2180 6820:269 JLINK_ReadReg(R6)  returns 0x20000684 (0000ms, 28674ms total)
T2180 6820:269 JLINK_ReadReg(R7)  returns 0x20007F74 (0000ms, 28674ms total)
T2180 6820:269 JLINK_ReadReg(R8)  returns 0x00000040 (0000ms, 28674ms total)
T2180 6820:269 JLINK_ReadReg(R9)  returns 0x2000032E (0000ms, 28674ms total)
T2180 6820:269 JLINK_ReadReg(R10)  returns 0x00000000 (0000ms, 28674ms total)
T2180 6820:269 JLINK_ReadReg(R11)  returns 0xF7FEFFE7 (0000ms, 28674ms total)
T2180 6820:269 JLINK_ReadReg(R12)  returns 0x200005D8 (0000ms, 28674ms total)
T2180 6820:269 JLINK_ReadReg(R13 (SP))  returns 0x20007FFC (0000ms, 28674ms total)
T2180 6820:269 JLINK_ReadReg(R14)  returns 0x2000032F (0000ms, 28674ms total)
T2180 6820:269 JLINK_ReadReg(R15 (PC))  returns 0x00001144 (0000ms, 28674ms total)
T2180 6820:269 JLINK_ReadReg(XPSR)  returns 0x61000000 (0000ms, 28674ms total)
T2180 6820:269 JLINK_ReadReg(MSP)  returns 0x20007FFC (0000ms, 28674ms total)
T2180 6820:269 JLINK_ReadReg(PSP)  returns 0xEFEDFFFC (0000ms, 28674ms total)
T2180 6820:269 JLINK_ReadReg(PRIMASK)  returns 0x00000000 (0000ms, 28674ms total)
T2180 6820:269 JLINK_ReadReg(BASEPRI)  returns 0x00000000 (0000ms, 28674ms total)
T2180 6820:269 JLINK_ReadReg(FAULTMASK)  returns 0x00000000 (0000ms, 28674ms total)
T2180 6820:269 JLINK_ReadReg(CONTROL)  returns 0x00000000 (0000ms, 28674ms total)
T2180 6820:278 JLINK_ReadMemHW(0x00001144, 0x0004 Bytes, ...) -- CPU_ReadMem(4 bytes @ 0x00001144) - Data: 10 B5 16 4A  returns 0x00 (0001ms, 28675ms total)
T2AC8 6820:280 JLINK_IsHalted()  returns TRUE (0000ms, 28675ms total)
T2180 6820:459 JLINK_ReadMemHW(0x000011BE, 0x0002 Bytes, ...) -- CPU_ReadMem(2 bytes @ 0x000011BE) - Data: 54 4B  returns 0x00 (0001ms, 28676ms total)
T2180 6820:461 JLINK_ReadMemHW(0x00001310, 0x0004 Bytes, ...) -- CPU_ReadMem(4 bytes @ 0x00001310) - Data: 00 40 00 00  returns 0x00 (0000ms, 28676ms total)
T2180 6820:461 JLINK_ReadMemHW(0x00001242, 0x0002 Bytes, ...) -- CPU_ReadMem(2 bytes @ 0x00001242) - Data: 22 00  returns 0x00 (0001ms, 28677ms total)
T2AC8 6820:481 JLINK_IsHalted()  returns TRUE (0000ms, 28677ms total)
T25D4 6820:484 JLINK_GetNumBPUnits(Type = 0xFFFFFF02)  returns 0x04 (0000ms, 28677ms total)
T25D4 6820:484 JLINK_SetBPEx(Addr = 0x00001242, Type = 0xFFFFFFF2)  returns 0x00000001 (0000ms, 28677ms total)
T25D4 6820:484 JLINK_GetBPInfo(BPHandle = 1)  returns 0x00 (0000ms, 28677ms total)
T2180 6820:507 JLINK_ReadMemHW(0x00000568, 0x0002 Bytes, ...) -- CPU_ReadMem(2 bytes @ 0x00000568) - Data: 00 29  returns 0x00 (0000ms, 28677ms total)
T2180 6820:508 JLINK_ReadMemHW(0x000006BE, 0x0002 Bytes, ...) -- CPU_ReadMem(2 bytes @ 0x000006BE) - Data: 47 4B  returns 0x00 (0001ms, 28678ms total)
T2180 6820:509 JLINK_ReadMemHW(0x000007DC, 0x0004 Bytes, ...) -- CPU_ReadMem(4 bytes @ 0x000007DC) - Data: ED 00 00 20  returns 0x00 (0001ms, 28679ms total)
T2180 6820:510 JLINK_ReadMemHW(0x000005A4, 0x0002 Bytes, ...) -- CPU_ReadMem(2 bytes @ 0x000005A4) - Data: 3A 4B  returns 0x00 (0001ms, 28680ms total)
T2180 6820:511 JLINK_ReadMemHW(0x000006E6, 0x0002 Bytes, ...) -- CPU_ReadMem(2 bytes @ 0x000006E6) - Data: 3F 48  returns 0x00 (0001ms, 28681ms total)
T25D4 6820:515 JLINK_SetBPEx(Addr = 0x000006E6, Type = 0xFFFFFFF2)  returns 0x00000002 (0000ms, 28681ms total)
T25D4 6820:515 JLINK_GetBPInfo(BPHandle = 2)  returns 0x00 (0000ms, 28681ms total)
T25D4 6820:515 JLINK_SetBPEx(Addr = 0x000005A4, Type = 0xFFFFFFF2)  returns 0x00000003 (0000ms, 28681ms total)
T25D4 6820:515 JLINK_GetBPInfo(BPHandle = 3)  returns 0x00 (0000ms, 28681ms total)
T1B14 6820:523 JLINK_EMU_GetList(InterfaceMask = 0x00000001, MaxInfos = 0x00000032) [0]: USB, S/N: 28012628  returns 0x01 (0001ms, 28682ms total)
T1B14 6820:524 JLINK_EMU_GetList(InterfaceMask = 0x00000002, MaxInfos = 0x00000032)   returns 0x00 (0024ms, 28706ms total)
T2180 6820:548 JLINK_ReadMemHW(0x00000568, 0x0002 Bytes, ...) -- CPU_ReadMem(2 bytes @ 0x00000568) - Data: 00 29  returns 0x00 (0000ms, 28706ms total)
T2180 6820:548 JLINK_ReadMemHW(0x000006BE, 0x0002 Bytes, ...) -- CPU_ReadMem(2 bytes @ 0x000006BE) - Data: 47 4B  returns 0x00 (0001ms, 28707ms total)
T2180 6820:549 JLINK_ReadMemHW(0x000007DC, 0x0004 Bytes, ...) -- CPU_ReadMem(4 bytes @ 0x000007DC) - Data: ED 00 00 20  returns 0x00 (0001ms, 28708ms total)
T2180 6820:550 JLINK_ReadMemHW(0x000005A4, 0x0002 Bytes, ...) -- CPU_ReadMem(2 bytes @ 0x000005A4) - Data: 3A 4B  returns 0x00 (0001ms, 28709ms total)
T2180 6820:551 JLINK_ReadMemHW(0x000006E6, 0x0002 Bytes, ...) -- CPU_ReadMem(2 bytes @ 0x000006E6) - Data: 3F 48  returns 0x00 (0001ms, 28710ms total)
T2180 6820:564 JLINK_ReadMemHW(0x000006BE, 0x0002 Bytes, ...) -- CPU_ReadMem(2 bytes @ 0x000006BE) - Data: 47 4B  returns 0x00 (0001ms, 28711ms total)
T2180 6820:565 JLINK_ReadMemHW(0x000007DC, 0x0004 Bytes, ...) -- CPU_ReadMem(4 bytes @ 0x000007DC) - Data: ED 00 00 20  returns 0x00 (0001ms, 28712ms total)
T2180 6820:566 JLINK_ReadMemHW(0x0000071A, 0x0002 Bytes, ...) -- CPU_ReadMem(2 bytes @ 0x0000071A) - Data: 02 20  returns 0x00 (0001ms, 28713ms total)
T25D4 6820:569 JLINK_SetBPEx(Addr = 0x0000071A, Type = 0xF2)  returns 0x00000004 (0000ms, 28713ms total)
T25D4 6820:569 JLINK_GetBPInfo(BPHandle = 4)  returns 0x80000000 (0000ms, 28713ms total)
T2180 6820:579 JLINK_ReadMemHW(0x000011BE, 0x0002 Bytes, ...) -- CPU_ReadMem(2 bytes @ 0x000011BE) - Data: 54 4B  returns 0x00 (0001ms, 28714ms total)
T2180 6820:580 JLINK_ReadMemHW(0x00001310, 0x0004 Bytes, ...) -- CPU_ReadMem(4 bytes @ 0x00001310) - Data: 00 40 00 00  returns 0x00 (0001ms, 28715ms total)
T2180 6820:581 JLINK_ReadMemHW(0x00001200, 0x0002 Bytes, ...) -- CPU_ReadMem(2 bytes @ 0x00001200) - Data: 4A 48  returns 0x00 (0001ms, 28716ms total)
T25D4 6820:583 JLINK_SetBPEx(Addr = 0x00001200, Type = 0xF2)  returns 0x00000005 (0001ms, 28717ms total)
T25D4 6820:584 JLINK_GetBPInfo(BPHandle = 5)  returns 0x80000000 (0000ms, 28717ms total)
T2180 6820:624 JLINK_ReadMemHW(0x00001A88, 0x0002 Bytes, ...) -- CPU_ReadMem(2 bytes @ 0x00001A88) - Data: 08 23  returns 0x00 (0001ms, 28718ms total)
T2180 6820:625 JLINK_ReadMemHW(0x00001AB0, 0x0002 Bytes, ...) -- CPU_ReadMem(2 bytes @ 0x00001AB0) - Data: 83 68  returns 0x00 (0001ms, 28719ms total)
T25D4 6820:628 JLINK_SetBPEx(Addr = 0x00001AB0, Type = 0xF2)  returns 0x00000006 (0000ms, 28719ms total)
T25D4 6820:628 JLINK_GetBPInfo(BPHandle = 6)  returns 0x80000000 (0000ms, 28719ms total)
T2180 6820:638 JLINK_ReadMemHW(0x00001342, 0x0002 Bytes, ...) -- CPU_ReadMem(2 bytes @ 0x00001342) - Data: FE F7  returns 0x00 (0001ms, 28720ms total)
T2180 6820:639 JLINK_ReadMemHW(0x00001342, 0x0002 Bytes, ...) -- CPU_ReadMem(2 bytes @ 0x00001342) - Data: FE F7  returns 0x00 (0001ms, 28721ms total)
T25D4 6820:641 JLINK_SetBPEx(Addr = 0x00001342, Type = 0xF2)  returns 0x00000007 (0001ms, 28722ms total)
T25D4 6820:642 JLINK_GetBPInfo(BPHandle = 7)  returns 0x80000000 (0000ms, 28722ms total)
T2180 6820:653 JLINK_SetResetType(JLINKARM_CM3_RESET_TYPE_NORMAL)  returns JLINKARM_CM3_RESET_TYPE_NORMAL (0000ms, 28722ms total)
T2180 6820:653 JLINK_Reset() -- CPU_ReadMem(4 bytes @ 0x41006004) -- CPU_ReadMem(4 bytes @ 0xE000ED90) -- Start of preparing flash programming -- Calculating RAM usage -- RAM usage = 5876 Bytes -- Preserving CPU registers -- Preparing memory -- Preparing target -- Preserving target RAM temporarily used for programming -- Downloading RAMCode -- Not first flash download, checking target RAM skipped -- Preparing RAMCode -- End of preparing flash programming -- Read from flash cache (256 bytes @ 0x00000700)
 -- Programming range 0x00000700 - 0x000007FF (001 Sector, 256 Bytes) -- Read from flash cache (256 bytes @ 0x00001200) -- Programming range 0x00001200 - 0x000012FF (001 Sector, 256 Bytes) -- Read from flash cache (256 bytes @ 0x00001A00) -- Programming range 0x00001A00 - 0x00001AFF (001 Sector, 256 Bytes) -- Read from flash cache (256 bytes @ 0x00001300) -- Programming range 0x00001300 - 0x000013FF (001 Sector, 256 Bytes) -- Start of restoring -- Restoring RAMCode -- Restoring target memory
 -- Restore target -- Restore memory -- Restoring CPU registers -- End of restoring -- CPU_ReadMem(4 bytes @ 0x20000000) -- CPU_WriteMem(4 bytes @ 0x20000000) -- CPU_ReadMem(4 bytes @ 0xE000EDFC) -- CPU_WriteMem(4 bytes @ 0xE000EDFC) -- CPU_WriteMem(4 bytes @ 0xE000ED0C) -- CPU_ReadMem(4 bytes @ 0xE000EDF0) -- CPU_ReadMem(4 bytes @ 0x41002100) -- CPU_WriteMem(4 bytes @ 0x41002100) -- CPU_ReadMem(4 bytes @ 0x41002100) -- CPU_WriteMem(4 bytes @ 0xE000EDFC) -- CPU_WriteMem(4 bytes @ 0xE0002000)
 -- CPU_ReadMem(4 bytes @ 0xE000EDFC) -- CPU_ReadMem(4 bytes @ 0xE0001000) -- CPU_WriteMem(4 bytes @ 0xE0001000) (0184ms, 28906ms total)
T2AC8 6820:837 JLINK_IsHalted()  returns TRUE (0000ms, 28906ms total)
T2AC8 6820:837 JLINK_GetMOEs(...) -- CPU_ReadMem(4 bytes @ 0xE000ED30)  returns 0x01 (0001ms, 28907ms total)
T2AC8 6820:838 JLINK_ReadReg(R15 (PC))  returns 0x00001144 (0000ms, 28907ms total)
T2180 6820:848 JLINK_ReadReg(R15 (PC))  returns 0x00001144 (0000ms, 28907ms total)
T2180 6820:848 JLINK_ReadReg(R13 (SP))  returns 0x20007FFC (0000ms, 28907ms total)
T2180 6820:848 JLINK_ReadMemHW(0x00001144, 0x0004 Bytes, ...) -- CPU_ReadMem(4 bytes @ 0x00001144) - Data: 10 B5 16 4A  returns 0x00 (0000ms, 28907ms total)
T2180 6820:884 JLINK_ReadMemHW(0x000011B8, 0x0001 Bytes, ...) -- CPU_ReadMem(1 bytes @ 0x000011B8) - Data: F0  returns 0x00 (0001ms, 28908ms total)
T2180 6820:909 JLINK_ReadReg(R15 (PC))  returns 0x00001144 (0000ms, 28908ms total)
T2180 6820:909 JLINK_SetBPEx(Addr = 0x000011B8, Type = 0xF2)  returns 0x00000008 (0001ms, 28909ms total)
T2180 6820:910 JLINK_GetBPInfo(BPHandle = 8)  returns 0x80000000 (0000ms, 28909ms total)
T2180 6820:910 JLINK_Go() -- Read from flash cache (2 bytes @ 0x00001144) -- CPU_ReadMem(4 bytes @ 0xE000ED18) -- CPU_WriteMem(4 bytes @ 0xE000ED18) -- CPU_ReadMem(4 bytes @ 0xE000ED18) -- CPU_WriteMem(4 bytes @ 0xE000ED18) -- CPU_WriteMem(8 bytes @ 0x20007FF4) -- Simulated -- Read from flash cache (2 bytes @ 0x00001146) -- Read from flash cache (4 bytes @ 0x000011A0) -- Simulated -- Read from flash cache (2 bytes @ 0x00001148) -- Read from flash cache (4 bytes @ 0x000011A4) -- Simulated
 -- Read from flash cache (2 bytes @ 0x0000114A) -- Simulated -- Read from flash cache (2 bytes @ 0x0000114C) -- Simulated -- Read from flash cache (2 bytes @ 0x0000114E) -- Read from flash cache (4 bytes @ 0x000011A8) -- Simulated -- Read from flash cache (2 bytes @ 0x00001150) -- Read from flash cache (4 bytes @ 0x000011A0) -- Simulated -- Read from flash cache (2 bytes @ 0x00001152) -- Simulated -- Read from flash cache (2 bytes @ 0x00001154) -- Simulated
 -- Read from flash cache (2 bytes @ 0x00001156) -- Simulated -- CPU_ReadMem(4 bytes @ 0x41006004) -- CPU_ReadMem(4 bytes @ 0xE000ED90) -- Start of preparing flash programming -- Calculating RAM usage -- RAM usage = 5876 Bytes -- Preserving CPU registers -- Preparing memory -- Preparing target -- Preserving target RAM temporarily used for programming -- Downloading RAMCode -- Not first flash download, checking target RAM skipped -- Preparing RAMCode -- End of preparing flash programming
 -- Read from flash cache (256 bytes @ 0x00001100) -- Programming range 0x00001100 - 0x000011FF (001 Sector, 256 Bytes) -- Start of restoring -- Restoring RAMCode -- Restoring target memory -- Restore target -- Restore memory -- Restoring CPU registers -- End of restoring -- CPU_WriteMem(4 bytes @ 0xE0002000) -- CPU_WriteMem(4 bytes @ 0xE0002000) -- CPU_WriteMem(4 bytes @ 0xE0002000) -- CPU_ReadMem(4 bytes @ 0xE0001000) -- CPU_WriteMem(4 bytes @ 0xE0001000) -- CPU_WriteMem(4 bytes @ 0xE0002008)
 -- CPU_WriteMem(4 bytes @ 0xE000200C) -- CPU_WriteMem(4 bytes @ 0xE0002010) -- CPU_WriteMem(4 bytes @ 0xE0002014) (0154ms, 29063ms total)
T2AC8 6821:064 JLINK_IsHalted() -- CPU_ReadMem(4 bytes @ 0x41002100)  returns FALSE (0002ms, 29065ms total)
T2AC8 6821:087 JLINK_IsHalted()  returns TRUE (0002ms, 29067ms total)
T2AC8 6821:089 JLINK_GetMOEs(...) -- CPU_ReadMem(4 bytes @ 0xE000ED30)  returns 0x01 (0001ms, 29066ms total)
T2AC8 6821:090 JLINK_ReadReg(R15 (PC))  returns 0x000011B8 (0000ms, 29066ms total)
T2180 6821:096 JLINK_ReadReg(R15 (PC))  returns 0x000011B8 (0000ms, 29066ms total)
T2180 6821:096 JLINK_ReadReg(R13 (SP))  returns 0x20007FF4 (0000ms, 29066ms total)
T2180 6821:096 JLINK_ReadMemHW(0x000011B8, 0x0004 Bytes, ...) -- CPU_ReadMem(4 bytes @ 0x000011B8) - Data: 00 BE 85 B0  returns 0x00 (0001ms, 29067ms total)
T2180 6821:110 JLINK_WriteU32(0xE000EDFC, 0x01000000) -- CPU_WriteMem(4 bytes @ 0xE000EDFC)  returns 0x00 (0001ms, 29068ms total)
T2180 6821:111 JLINK_ReadMem (0xE0001000, 0x0004 Bytes, ...) -- CPU_ReadMem(4 bytes @ 0xE0001000) - Data: 00 00 00 20  returns 0x00 (0001ms, 29069ms total)
T2180 6821:112 JLINK_WriteU32(0xE0001000, 0x20000001)  returns 0x00 (0000ms, 29069ms total)
T2180 6821:112 JLINK_WriteU32(0xE0001028, 0x00000100)  returns 0x00 (0000ms, 29069ms total)
T2180 6821:112 JLINK_ReadMem (0xE0001028, 0x0004 Bytes, ...) -- CPU_WriteMem(4 bytes @ 0xE0001028) -- CPU_ReadMem(4 bytes @ 0xE0001028) - Data: 00 00 00 00  returns 0x00 (0002ms, 29071ms total)
T2180 6821:114 JLINK_WriteU32(0xE0001024, 0x0000001F)  returns 0x00 (0000ms, 29071ms total)
T2180 6821:114 JLINK_ReadMem (0xE0001024, 0x0004 Bytes, ...) -- CPU_WriteMem(4 bytes @ 0xE0001024) -- CPU_ReadMem(4 bytes @ 0xE0001024) - Data: 1F 00 00 00  returns 0x00 (0001ms, 29072ms total)
T2180 6821:115 JLINK_WriteU32(0xE0001038, 0x00000100)  returns 0x00 (0000ms, 29072ms total)
T2180 6821:117 JLINK_ReadMem (0xE0001038, 0x0004 Bytes, ...) -- CPU_WriteMem(4 bytes @ 0xE0001038) -- CPU_ReadMem(4 bytes @ 0xE0001038) - Data: 00 00 00 00  returns 0x00 (0001ms, 29073ms total)
T2180 6821:118 JLINK_WriteU32(0xE0001034, 0x0000001F)  returns 0x00 (0000ms, 29073ms total)
T2180 6821:118 JLINK_ReadMem (0xE0001034, 0x0004 Bytes, ...) -- CPU_WriteMem(4 bytes @ 0xE0001034) -- CPU_ReadMem(4 bytes @ 0xE0001034) - Data: 1F 00 00 00  returns 0x00 (0002ms, 29075ms total)
T2180 6821:120 JLINK_WriteU32(0xE0001020, 0x00000000)  returns 0x00 (0000ms, 29075ms total)
T2180 6821:120 JLINK_WriteU32(0xE0001024, 0x00000000)  returns 0x00 (0000ms, 29075ms total)
T2180 6821:120 JLINK_WriteU32(0xE0001028, 0x00000000)  returns 0x00 (0000ms, 29075ms total)
T2180 6821:120 JLINK_WriteU32(0xE0001030, 0x00000000)  returns 0x00 (0000ms, 29075ms total)
T2180 6821:120 JLINK_WriteU32(0xE0001034, 0x00000000)  returns 0x00 (0000ms, 29075ms total)
T2180 6821:120 JLINK_WriteU32(0xE0001038, 0x00000000)  returns 0x00 (0000ms, 29075ms total)
T2180 6821:120 JLINK_GetBPInfo(BPHandle = 8)  returns 0x80000000 (0000ms, 29075ms total)
T2180 6821:120 JLINK_ClrBPEx(BPHandle = 0x00000008)  returns 0x00 (0000ms, 29075ms total)
T2180 6821:121 JLINK_ReadReg(R15 (PC))  returns 0x000011B8 (0000ms, 29075ms total)
T2180 6821:121 JLINK_Go() -- Merging zombie BP[7]: 0xB5F0 @ 0x000011B8 -- Merging zombie BP[7]: 0xB5F0 @ 0x000011B8 -- CPU_ReadMem(4 bytes @ 0xE0001004) -- CPU_WriteMem(20 bytes @ 0x20007FE0) -- Simulated -- Read from flash cache (2 bytes @ 0x000011BA) -- Simulated -- Read from flash cache (2 bytes @ 0x000011BC) -- Simulated -- Read from flash cache (2 bytes @ 0x000011BE) -- Read from flash cache (4 bytes @ 0x00001310) -- Simulated -- Read from flash cache (2 bytes @ 0x000011C0)
 -- CPU_ReadMem(64 bytes @ 0x00004000) -- Updating C cache (64 bytes @ 0x00004000) -- Read from C cache (4 bytes @ 0x00004000) -- Simulated -- Read from flash cache (2 bytes @ 0x000011C2) -- Simulated -- Read from flash cache (2 bytes @ 0x000011C4) -- Simulated -- Read from flash cache (2 bytes @ 0x000011FC) -- Read from flash cache (2 bytes @ 0x000011FE) -- Simulated -- Read from flash cache (2 bytes @ 0x00001054) -- CPU_WriteMem(16 bytes @ 0x20007FBC) -- Simulated
 -- Read from flash cache (2 bytes @ 0x00001056) -- Read from flash cache (4 bytes @ 0x00001108) -- Simulated -- CPU_ReadMem(4 bytes @ 0x41006004) -- CPU_ReadMem(4 bytes @ 0xE000ED90) -- Start of preparing flash programming -- Calculating RAM usage -- RAM usage = 5876 Bytes -- Preserving CPU registers -- Preparing memory -- Preparing target -- Preserving target RAM temporarily used for programming -- Downloading RAMCode -- Not first flash download, checking target RAM skipped -- Preparing RAMCode
 -- End of preparing flash programming -- Read from flash cache (256 bytes @ 0x00001100) -- Programming range 0x00001100 - 0x000011FF (001 Sector, 256 Bytes) -- Start of restoring -- Restoring RAMCode -- Restoring target memory -- Restore target -- Restore memory -- Restoring CPU registers -- End of restoring -- CPU_WriteMem(4 bytes @ 0xE0002000) -- CPU_WriteMem(4 bytes @ 0xE0002000) -- CPU_WriteMem(4 bytes @ 0xE0002000) -- CPU_ReadMem(4 bytes @ 0xE0001000) -- CPU_WriteMem(4 bytes @ 0xE0001000)
 (0157ms, 29232ms total)
T2AC8 6821:278 JLINK_IsHalted() -- CPU_ReadMem(4 bytes @ 0x41002100)  returns FALSE (0001ms, 29233ms total)
T2AC8 6821:319 JLINK_IsHalted()  returns TRUE (0003ms, 29236ms total)
T2AC8 6821:322 JLINK_GetMOEs(...) -- CPU_ReadMem(4 bytes @ 0xE000ED30)  returns 0x01 (0000ms, 29233ms total)
T2AC8 6821:322 JLINK_ReadReg(R15 (PC))  returns 0x00001200 (0000ms, 29233ms total)
T2180 6821:329 JLINK_ReadReg(R15 (PC))  returns 0x00001200 (0000ms, 29233ms total)
T2180 6821:329 JLINK_ReadReg(R13 (SP))  returns 0x20007FCC (0000ms, 29233ms total)
T2180 6821:329 JLINK_ReadMemHW(0x00001200, 0x0004 Bytes, ...) -- CPU_ReadMem(4 bytes @ 0x00001200) - Data: 00 BE FF F7  returns 0x00 (0001ms, 29234ms total)
T2180 6821:330 JLINK_ReadReg(R0)  returns 0xE000ED00 (0000ms, 29234ms total)
T2180 6821:330 JLINK_ReadReg(R1)  returns 0xC0000000 (0000ms, 29234ms total)
T2180 6821:330 JLINK_ReadReg(R2)  returns 0xE000E010 (0000ms, 29234ms total)
T2180 6821:330 JLINK_ReadReg(R3)  returns 0x00000007 (0000ms, 29234ms total)
T2180 6821:330 JLINK_ReadReg(R4)  returns 0x00000041 (0000ms, 29234ms total)
T2180 6821:330 JLINK_ReadReg(R5)  returns 0x20000684 (0000ms, 29234ms total)
T2180 6821:330 JLINK_ReadReg(R6)  returns 0x20000684 (0000ms, 29234ms total)
T2180 6821:330 JLINK_ReadReg(R7)  returns 0x20007FD4 (0000ms, 29234ms total)
T2180 6821:330 JLINK_ReadReg(R8)  returns 0x00000040 (0000ms, 29234ms total)
T2180 6821:330 JLINK_ReadReg(R9)  returns 0x2000032E (0000ms, 29234ms total)
T2180 6821:330 JLINK_ReadReg(R10)  returns 0x00000000 (0000ms, 29234ms total)
T2180 6821:330 JLINK_ReadReg(R11)  returns 0xF7FEFFE7 (0000ms, 29234ms total)
T2180 6821:330 JLINK_ReadReg(R12)  returns 0x200005D8 (0000ms, 29234ms total)
T2180 6821:330 JLINK_ReadReg(R13 (SP))  returns 0x20007FCC (0000ms, 29234ms total)
T2180 6821:330 JLINK_ReadReg(R14)  returns 0x000010E9 (0001ms, 29235ms total)
T2180 6821:331 JLINK_ReadReg(R15 (PC))  returns 0x00001200 (0000ms, 29235ms total)
T2180 6821:331 JLINK_ReadReg(XPSR)  returns 0x01000000 (0000ms, 29235ms total)
T2180 6821:331 JLINK_ReadReg(MSP)  returns 0x20007FCC (0000ms, 29235ms total)
T2180 6821:331 JLINK_ReadReg(PSP)  returns 0xEFEDFFFC (0000ms, 29235ms total)
T2180 6821:331 JLINK_ReadReg(PRIMASK)  returns 0x00000000 (0000ms, 29235ms total)
T2180 6821:331 JLINK_ReadReg(BASEPRI)  returns 0x00000000 (0000ms, 29235ms total)
T2180 6821:331 JLINK_ReadReg(FAULTMASK)  returns 0x00000000 (0000ms, 29235ms total)
T2180 6821:331 JLINK_ReadReg(CONTROL)  returns 0x00000000 (0000ms, 29235ms total)
T25D4 6821:444 JLINK_ReadMemHW(0x00000000, 0x0154 Bytes, ...) -- CPU_ReadMem(340 bytes @ 0x00000000) - Data: FC 7F 00 20 45 11 00 00 35 11 00 00 39 11 00 00 ...  returns 0x00 (0003ms, 29238ms total)
T25D4 6821:511 JLINK_ReadMemHW(0x00000154, 0x003C Bytes, ...) -- CPU_ReadMem(60 bytes @ 0x00000154) - Data: 1B F9 EE E7 D8 00 00 20 00 00 00 20 01 00 00 20 ...  returns 0x00 (0002ms, 29240ms total)
T25D4 6821:519 JLINK_ReadMemHW(0x00000190, 0x0050 Bytes, ...) -- CPU_ReadMem(80 bytes @ 0x00000190) - Data: 2C 00 AD 19 20 78 00 F0 2D FB 01 34 AC 42 F9 D1 ...  returns 0x00 (0002ms, 29242ms total)
T25D4 6821:521 JLINK_ReadMem (0x42002000, 0x0004 Bytes, ...) -- CPU_ReadMem(4 bytes @ 0x42002000) - Data: 00 00 00 00  returns 0x00 (0000ms, 29242ms total)
T2AC8 6821:522 JLINK_IsHalted()  returns TRUE (0000ms, 29242ms total)
T25D4 6821:573 JLINK_ReadMem (0x42002004, 0x0001 Bytes, ...) -- CPU_ReadMem(1 bytes @ 0x42002004) - Data: 00  returns 0x00 (0000ms, 29242ms total)
T25D4 6821:579 JLINK_ReadMem (0x42002005, 0x0001 Bytes, ...) -- CPU_ReadMem(1 bytes @ 0x42002005) - Data: 00  returns 0x00 (0000ms, 29242ms total)
T25D4 6821:583 JLINK_ReadMem (0x42002008, 0x0004 Bytes, ...) -- CPU_ReadMem(4 bytes @ 0x42002008) - Data: 00 00 00 00  returns 0x00 (0001ms, 29243ms total)
T25D4 6821:593 JLINK_ReadMem (0x4200200C, 0x0004 Bytes, ...) -- CPU_ReadMem(4 bytes @ 0x4200200C) - Data: 00 00 00 00  returns 0x00 (0000ms, 29243ms total)
T25D4 6821:599 JLINK_ReadMem (0x42002010, 0x0004 Bytes, ...) -- CPU_ReadMem(4 bytes @ 0x42002010) - Data: 00 00 00 00  returns 0x00 (0001ms, 29244ms total)
T25D4 6821:609 JLINK_ReadMem (0x42002014, 0x0004 Bytes, ...) -- CPU_ReadMem(4 bytes @ 0x42002014) - Data: 00 00 00 00  returns 0x00 (0000ms, 29244ms total)
T25D4 6821:616 JLINK_ReadMem (0x42002018, 0x0004 Bytes, ...) -- CPU_ReadMem(4 bytes @ 0x42002018) - Data: 00 00 00 00  returns 0x00 (0000ms, 29244ms total)
T25D4 6821:667 JLINK_ReadMem (0x4200201E, 0x0001 Bytes, ...) -- CPU_ReadMem(1 bytes @ 0x4200201E) - Data: 00  returns 0x00 (0000ms, 29244ms total)
T25D4 6821:693 JLINK_ReadMem (0x42002020, 0x0004 Bytes, ...) -- CPU_ReadMem(4 bytes @ 0x42002020) - Data: 00 00 00 00  returns 0x00 (0000ms, 29244ms total)
T2AC8 6821:722 JLINK_IsHalted()  returns TRUE (0000ms, 29244ms total)
T25D4 6821:733 JLINK_ReadMem (0x42002024, 0x0004 Bytes, ...) -- CPU_ReadMem(4 bytes @ 0x42002024) - Data: 00 00 00 00  returns 0x00 (0002ms, 29246ms total)
T25D4 6821:740 JLINK_ReadMem (0x42002028, 0x0004 Bytes, ...) -- CPU_ReadMem(4 bytes @ 0x42002028) - Data: 00 00 00 00  returns 0x00 (0001ms, 29247ms total)
T25D4 6821:747 JLINK_ReadMem (0x4200202C, 0x0004 Bytes, ...) -- CPU_ReadMem(4 bytes @ 0x4200202C) - Data: 00 00 00 00  returns 0x00 (0001ms, 29248ms total)
T25D4 6821:752 JLINK_ReadMem (0x42002030, 0x0004 Bytes, ...) -- CPU_ReadMem(4 bytes @ 0x42002030) - Data: 01 00 00 00  returns 0x00 (0000ms, 29248ms total)
T25D4 6821:756 JLINK_ReadMem (0x42002034, 0x0004 Bytes, ...) -- CPU_ReadMem(4 bytes @ 0x42002034) - Data: 00 00 00 00  returns 0x00 (0000ms, 29248ms total)
T25D4 6821:760 JLINK_ReadMem (0x42002038, 0x0002 Bytes, ...) -- CPU_ReadMem(2 bytes @ 0x42002038) - Data: 00 00  returns 0x00 (0000ms, 29248ms total)
T25D4 6821:764 JLINK_ReadMem (0x4200203C, 0x0004 Bytes, ...) -- CPU_ReadMem(4 bytes @ 0x4200203C) - Data: 00 00 00 00  returns 0x00 (0000ms, 29248ms total)
T25D4 6821:771 JLINK_ReadMem (0x42002040, 0x0004 Bytes, ...) -- CPU_ReadMem(4 bytes @ 0x42002040) - Data: FF FF FF 00  returns 0x00 (0001ms, 29249ms total)
T25D4 6821:776 JLINK_ReadMem (0x42002044, 0x0004 Bytes, ...) -- CPU_ReadMem(4 bytes @ 0x42002044) - Data: 00 00 00 00  returns 0x00 (0000ms, 29249ms total)
T25D4 6821:778 JLINK_ReadMem (0x42002048, 0x0004 Bytes, ...) -- CPU_ReadMem(4 bytes @ 0x42002048) - Data: 00 00 00 00  returns 0x00 (0001ms, 29250ms total)
T25D4 6821:781 JLINK_ReadMem (0x4200204C, 0x0004 Bytes, ...) -- CPU_ReadMem(4 bytes @ 0x4200204C) - Data: 00 00 00 00  returns 0x00 (0000ms, 29250ms total)
T25D4 6821:784 JLINK_ReadMem (0x42002050, 0x0004 Bytes, ...) -- CPU_ReadMem(4 bytes @ 0x42002050) - Data: 00 00 00 00  returns 0x00 (0000ms, 29250ms total)
T25D4 6821:786 JLINK_ReadMem (0x42002064, 0x0002 Bytes, ...) -- CPU_ReadMem(2 bytes @ 0x42002064) - Data: 00 00  returns 0x00 (0001ms, 29251ms total)
T25D4 6821:789 JLINK_ReadMem (0x42002068, 0x0004 Bytes, ...) -- CPU_ReadMem(4 bytes @ 0x42002068) - Data: 00 00 00 00  returns 0x00 (0001ms, 29252ms total)
T25D4 6821:792 JLINK_ReadMem (0x4200206C, 0x0004 Bytes, ...) -- CPU_ReadMem(4 bytes @ 0x4200206C) - Data: FF FF FF 00  returns 0x00 (0000ms, 29252ms total)
T25D4 6821:794 JLINK_ReadMem (0x42002070, 0x0004 Bytes, ...) -- CPU_ReadMem(4 bytes @ 0x42002070) - Data: 00 00 00 00  returns 0x00 (0001ms, 29253ms total)
T25D4 6821:798 JLINK_ReadMem (0x42002074, 0x0004 Bytes, ...) -- CPU_ReadMem(4 bytes @ 0x42002074) - Data: 00 00 00 00  returns 0x00 (0000ms, 29253ms total)
T25D4 6821:800 JLINK_ReadMem (0x42002078, 0x0004 Bytes, ...) -- CPU_ReadMem(4 bytes @ 0x42002078) - Data: 00 00 00 00  returns 0x00 (0001ms, 29254ms total)
T25D4 6821:805 JLINK_ReadMem (0x4200207C, 0x0004 Bytes, ...) -- CPU_ReadMem(4 bytes @ 0x4200207C) - Data: 00 00 00 00  returns 0x00 (0000ms, 29254ms total)
T1B14 6821:840 JLINK_EMU_GetList(InterfaceMask = 0x00000001, MaxInfos = 0x00000032) [0]: USB, S/N: 28012628  returns 0x01 (0000ms, 29254ms total)
T1B14 6821:840 JLINK_EMU_GetList(InterfaceMask = 0x00000002, MaxInfos = 0x00000032)   returns 0x00 (0025ms, 29279ms total)
T2AC8 6821:925 JLINK_IsHalted()  returns TRUE (0000ms, 29279ms total)
T2AC8 6822:126 JLINK_IsHalted()  returns TRUE (0000ms, 29279ms total)
T2AC8 6822:326 JLINK_IsHalted()  returns TRUE (0000ms, 29279ms total)
T2AC8 6822:526 JLINK_IsHalted()  returns TRUE (0001ms, 29280ms total)
T2AC8 6822:728 JLINK_IsHalted()  returns TRUE (0000ms, 29279ms total)
T2AC8 6822:929 JLINK_IsHalted()  returns TRUE (0000ms, 29279ms total)
T1B14 6823:063 JLINK_EMU_GetList(InterfaceMask = 0x00000001, MaxInfos = 0x00000032) [0]: USB, S/N: 28012628  returns 0x01 (0000ms, 29279ms total)
T1B14 6823:063 JLINK_EMU_GetList(InterfaceMask = 0x00000002, MaxInfos = 0x00000032)   returns 0x00 (0024ms, 29303ms total)
T2AC8 6823:129 JLINK_IsHalted()  returns TRUE (0000ms, 29303ms total)
T2180 6823:279 JLINK_ReadMemHW(0x00000484, 0x0001 Bytes, ...) -- CPU_ReadMem(1 bytes @ 0x00000484) - Data: 10  returns 0x00 (0001ms, 29304ms total)
T2AC8 6823:331 JLINK_IsHalted()  returns TRUE (0000ms, 29304ms total)
T2AC8 6823:532 JLINK_IsHalted()  returns TRUE (0000ms, 29304ms total)
T2AC8 6823:733 JLINK_IsHalted()  returns TRUE (0001ms, 29305ms total)
T2AC8 6823:936 JLINK_IsHalted()  returns TRUE (0000ms, 29304ms total)
T2AC8 6824:137 JLINK_IsHalted()  returns TRUE (0000ms, 29304ms total)
T1B14 6824:278 JLINK_EMU_GetList(InterfaceMask = 0x00000001, MaxInfos = 0x00000032) [0]: USB, S/N: 28012628  returns 0x01 (0001ms, 29305ms total)
T1B14 6824:279 JLINK_EMU_GetList(InterfaceMask = 0x00000002, MaxInfos = 0x00000032)   returns 0x00 (0024ms, 29329ms total)
T2180 6824:314 JLINK_ReadReg(R15 (PC))  returns 0x00001200 (0000ms, 29329ms total)
T2180 6824:314 JLINK_GetBPInfo(BPHandle = 5)  returns 0x80000000 (0000ms, 29329ms total)
T2180 6824:314 JLINK_ClrBPEx(BPHandle = 0x00000005)  returns 0x00 (0000ms, 29329ms total)
T2180 6824:314 JLINK_Step() -- Merging zombie BP[4]: 0x484A @ 0x00001200 -- Merging zombie BP[4]: 0x484A @ 0x00001200 -- CPU_ReadMem(4 bytes @ 0xE0001004) -- Read from flash cache (4 bytes @ 0x0000132C) -- Simulated  returns 0x00 (0001ms, 29330ms total)
T2180 6824:315 JLINK_SetBPEx(Addr = 0x00001200, Type = 0xF2)  returns 0x00000009 (0000ms, 29330ms total)
T2180 6824:315 JLINK_GetBPInfo(BPHandle = 9)  returns 0x80000000 (0000ms, 29330ms total)
T2AC8 6824:315 JLINK_IsHalted()  returns TRUE (0000ms, 29330ms total)
T2AC8 6824:315 JLINK_GetMOEs(...)  returns 0x01 (0000ms, 29330ms total)
T2AC8 6824:315 JLINK_ReadReg(R15 (PC))  returns 0x00001202 (0000ms, 29330ms total)
T2180 6824:326 JLINK_ReadReg(R15 (PC))  returns 0x00001202 (0000ms, 29330ms total)
T2180 6824:326 JLINK_ReadReg(R13 (SP))  returns 0x20007FCC (0000ms, 29330ms total)
T2180 6824:326 JLINK_ReadMemHW(0x00001202, 0x0004 Bytes, ...) -- CPU_ReadMem(4 bytes @ 0x00001202) - Data: FF F7 3F F9  returns 0x00 (0001ms, 29331ms total)
T2180 6824:327 JLINK_ReadReg(R0)  returns 0x00061A80 (0000ms, 29331ms total)
T2180 6824:327 JLINK_ReadReg(R1)  returns 0xC0000000 (0000ms, 29331ms total)
T2180 6824:327 JLINK_ReadReg(R2)  returns 0xE000E010 (0000ms, 29331ms total)
T2180 6824:327 JLINK_ReadReg(R3)  returns 0x00000007 (0000ms, 29331ms total)
T2180 6824:327 JLINK_ReadReg(R4)  returns 0x00000041 (0001ms, 29332ms total)
T2180 6824:328 JLINK_ReadReg(R5)  returns 0x20000684 (0000ms, 29332ms total)
T2180 6824:328 JLINK_ReadReg(R6)  returns 0x20000684 (0000ms, 29332ms total)
T2180 6824:328 JLINK_ReadReg(R7)  returns 0x20007FD4 (0000ms, 29332ms total)
T2180 6824:328 JLINK_ReadReg(R8)  returns 0x00000040 (0000ms, 29332ms total)
T2180 6824:328 JLINK_ReadReg(R9)  returns 0x2000032E (0000ms, 29332ms total)
T2180 6824:328 JLINK_ReadReg(R10)  returns 0x00000000 (0000ms, 29332ms total)
T2180 6824:328 JLINK_ReadReg(R11)  returns 0xF7FEFFE7 (0000ms, 29332ms total)
T2180 6824:328 JLINK_ReadReg(R12)  returns 0x200005D8 (0000ms, 29332ms total)
T2180 6824:328 JLINK_ReadReg(R13 (SP))  returns 0x20007FCC (0000ms, 29332ms total)
T2180 6824:328 JLINK_ReadReg(R14)  returns 0x000010E9 (0000ms, 29332ms total)
T2180 6824:328 JLINK_ReadReg(R15 (PC))  returns 0x00001202 (0000ms, 29332ms total)
T2180 6824:328 JLINK_ReadReg(XPSR)  returns 0x01000000 (0000ms, 29332ms total)
T2180 6824:328 JLINK_ReadReg(MSP)  returns 0x20007FCC (0000ms, 29332ms total)
T2180 6824:328 JLINK_ReadReg(PSP)  returns 0xEFEDFFFC (0000ms, 29332ms total)
T2180 6824:328 JLINK_ReadReg(PRIMASK)  returns 0x00000000 (0000ms, 29332ms total)
T2180 6824:328 JLINK_ReadReg(BASEPRI)  returns 0x00000000 (0000ms, 29332ms total)
T2180 6824:328 JLINK_ReadReg(FAULTMASK)  returns 0x00000000 (0000ms, 29332ms total)
T2180 6824:328 JLINK_ReadReg(CONTROL)  returns 0x00000000 (0000ms, 29332ms total)
T2180 6824:329 JLINK_ReadReg(R15 (PC))  returns 0x00001202 (0000ms, 29332ms total)
T2180 6824:330 JLINK_Step() -- Read from flash cache (2 bytes @ 0x00001202) -- Read from flash cache (2 bytes @ 0x00001204) -- Simulated  returns 0x00 (0000ms, 29332ms total)
T2AC8 6824:330 JLINK_IsHalted()  returns TRUE (0000ms, 29332ms total)
T2AC8 6824:330 JLINK_GetMOEs(...)  returns 0x01 (0000ms, 29332ms total)
T2AC8 6824:330 JLINK_ReadReg(R15 (PC))  returns 0x00000484 (0000ms, 29332ms total)
T2180 6824:340 JLINK_ReadReg(R15 (PC))  returns 0x00000484 (0000ms, 29332ms total)
T2180 6824:340 JLINK_ReadReg(R13 (SP))  returns 0x20007FCC (0000ms, 29332ms total)
T2180 6824:340 JLINK_ReadMemHW(0x00000484, 0x0004 Bytes, ...) -- CPU_ReadMem(4 bytes @ 0x00000484) - Data: 10 B5 2A 4B  returns 0x00 (0001ms, 29333ms total)
T2180 6824:341 JLINK_ReadReg(R0)  returns 0x00061A80 (0000ms, 29333ms total)
T2180 6824:341 JLINK_ReadReg(R1)  returns 0xC0000000 (0000ms, 29333ms total)
T2180 6824:341 JLINK_ReadReg(R2)  returns 0xE000E010 (0000ms, 29333ms total)
T2180 6824:341 JLINK_ReadReg(R3)  returns 0x00000007 (0000ms, 29333ms total)
T2180 6824:341 JLINK_ReadReg(R4)  returns 0x00000041 (0000ms, 29333ms total)
T2180 6824:341 JLINK_ReadReg(R5)  returns 0x20000684 (0000ms, 29333ms total)
T2180 6824:341 JLINK_ReadReg(R6)  returns 0x20000684 (0000ms, 29333ms total)
T2180 6824:341 JLINK_ReadReg(R7)  returns 0x20007FD4 (0000ms, 29333ms total)
T2180 6824:341 JLINK_ReadReg(R8)  returns 0x00000040 (0000ms, 29333ms total)
T2180 6824:341 JLINK_ReadReg(R9)  returns 0x2000032E (0000ms, 29333ms total)
T2180 6824:341 JLINK_ReadReg(R10)  returns 0x00000000 (0000ms, 29333ms total)
T2180 6824:341 JLINK_ReadReg(R11)  returns 0xF7FEFFE7 (0000ms, 29333ms total)
T2180 6824:341 JLINK_ReadReg(R12)  returns 0x200005D8 (0000ms, 29333ms total)
T2180 6824:341 JLINK_ReadReg(R13 (SP))  returns 0x20007FCC (0000ms, 29333ms total)
T2180 6824:341 JLINK_ReadReg(R14)  returns 0x00001207 (0000ms, 29333ms total)
T2180 6824:341 JLINK_ReadReg(R15 (PC))  returns 0x00000484 (0000ms, 29333ms total)
T2180 6824:341 JLINK_ReadReg(XPSR)  returns 0x01000000 (0000ms, 29333ms total)
T2180 6824:341 JLINK_ReadReg(MSP)  returns 0x20007FCC (0000ms, 29333ms total)
T2180 6824:341 JLINK_ReadReg(PSP)  returns 0xEFEDFFFC (0000ms, 29333ms total)
T2180 6824:341 JLINK_ReadReg(PRIMASK)  returns 0x00000000 (0000ms, 29333ms total)
T2180 6824:341 JLINK_ReadReg(BASEPRI)  returns 0x00000000 (0000ms, 29333ms total)
T2180 6824:341 JLINK_ReadReg(FAULTMASK)  returns 0x00000000 (0000ms, 29333ms total)
T2180 6824:341 JLINK_ReadReg(CONTROL)  returns 0x00000000 (0000ms, 29333ms total)
T2180 6824:342 JLINK_ReadMemHW(0x00001206, 0x0004 Bytes, ...) -- CPU_ReadMem(4 bytes @ 0x00001206) - Data: 62 B6 49 4B  returns 0x00 (0001ms, 29334ms total)
T2180 6824:343 JLINK_ReadMemHW(0x00000486, 0x0002 Bytes, ...) -- CPU_ReadMem(2 bytes @ 0x00000486) - Data: 2A 4B  returns 0x00 (0001ms, 29335ms total)
T2180 6824:344 JLINK_ReadMemHW(0x00000530, 0x0004 Bytes, ...) -- CPU_ReadMem(4 bytes @ 0x00000530) - Data: 00 0C 00 40  returns 0x00 (0001ms, 29336ms total)
T2180 6824:345 JLINK_ReadMemHW(0x00000486, 0x0002 Bytes, ...) -- CPU_ReadMem(2 bytes @ 0x00000486) - Data: 2A 4B  returns 0x00 (0001ms, 29337ms total)
T2180 6824:346 JLINK_ReadReg(R15 (PC))  returns 0x00000484 (0000ms, 29337ms total)
T2180 6824:346 JLINK_SetBPEx(Addr = 0x00000486, Type = 0xF2)  returns 0x0000000A (0001ms, 29338ms total)
T2180 6824:347 JLINK_GetBPInfo(BPHandle = 10)  returns 0x80000000 (0000ms, 29338ms total)
T2180 6824:347 JLINK_Go() -- Read from flash cache (2 bytes @ 0x00000484) -- CPU_WriteMem(8 bytes @ 0x20007FC4) -- Simulated (0001ms, 29339ms total)
T2AC8 6824:348 JLINK_IsHalted()  returns TRUE (0000ms, 29339ms total)
T2AC8 6824:348 JLINK_GetMOEs(...)  returns 0x01 (0000ms, 29339ms total)
T2AC8 6824:348 JLINK_ReadReg(R15 (PC))  returns 0x00000486 (0000ms, 29339ms total)
T2180 6824:358 JLINK_ReadReg(R15 (PC))  returns 0x00000486 (0000ms, 29339ms total)
T2180 6824:358 JLINK_ReadReg(R13 (SP))  returns 0x20007FC4 (0000ms, 29339ms total)
T2180 6824:358 JLINK_ReadMemHW(0x00000486, 0x0004 Bytes, ...) -- CPU_ReadMem(4 bytes @ 0x00000486) - Data: 2A 4B 2A 4A  returns 0x00 (0001ms, 29340ms total)
T2180 6824:359 JLINK_ReadMemHW(0x00000486, 0x0004 Bytes, ...) -- CPU_ReadMem(4 bytes @ 0x00000486) - Data: 2A 4B 2A 4A  returns 0x00 (0001ms, 29341ms total)
T2180 6824:361 JLINK_ReadMem (0x20007FC0, 0x0040 Bytes, ...) -- CPU_ReadMem(64 bytes @ 0x20007FC0) -- Updating C cache (64 bytes @ 0x20007FC0) -- Read from C cache (64 bytes @ 0x20007FC0) - Data: 84 06 00 20 41 00 00 00 07 12 00 00 00 00 00 00 ...  returns 0x00 (0001ms, 29342ms total)
T2180 6824:362 JLINK_ReadMemHW(0x00001206, 0x0004 Bytes, ...) -- CPU_ReadMem(4 bytes @ 0x00001206) - Data: 62 B6 49 4B  returns 0x00 (0001ms, 29343ms total)
T2180 6824:363 JLINK_ReadReg(R0)  returns 0x00061A80 (0000ms, 29343ms total)
T2180 6824:363 JLINK_ReadReg(R1)  returns 0xC0000000 (0001ms, 29344ms total)
T2180 6824:364 JLINK_ReadReg(R2)  returns 0xE000E010 (0000ms, 29344ms total)
T2180 6824:364 JLINK_ReadReg(R3)  returns 0x00000007 (0000ms, 29344ms total)
T2180 6824:364 JLINK_ReadReg(R4)  returns 0x00000041 (0000ms, 29344ms total)
T2180 6824:364 JLINK_ReadReg(R5)  returns 0x20000684 (0000ms, 29344ms total)
T2180 6824:364 JLINK_ReadReg(R6)  returns 0x20000684 (0000ms, 29344ms total)
T2180 6824:364 JLINK_ReadReg(R7)  returns 0x20007FD4 (0000ms, 29344ms total)
